Freq(Hz),Eq=(1-S11)/(1+S11)(DB),Eq=(1-S11)/(1+S11)(DEG),S11(DB),S11(DEG),S12(DB),S12(DEG),S21(DB),S21(DEG),S22(DB),S22(DEG)
150000000,-32.982162,46.564194,-0.26788855,-1.8669503,-78.77626,107.45768,-94.776703,109.16136,-0.8887291,95.356239
150000937.5,-32.96814,46.684803,-0.26772377,-1.873688,-80.850548,44.911911,-75.060669,36.502598,-0.88919574,95.349701
150001875,-32.965031,46.674313,-0.26787162,-1.874036,-79.094772,-64.161423,-79.673805,-79.985825,-0.88961291,95.346039
150002812.5,-32.95808,46.677891,-0.26806825,-1.8756474,-83.347466,-146.29115,-123.40567,131.74211,-0.89056742,95.348038
150003750,-32.955551,46.770618,-0.26768538,-1.8790519,-79.698853,-7.2221565,-75.917328,-9.4476938,-0.89012814,95.334724
150004687.5,-32.97839,46.654705,-0.26755714,-1.8705511,-83.814476,173.48495,-83.025475,127.15594,-0.88676053,95.320053
150005625,-32.968727,46.64542,-0.26790082,-1.8723474,-85.062859,-163.20502,-84.440056,-68.005234,-0.88919955,95.320625
150006562.5,-32.958714,46.766903,-0.26760656,-1.8782542,-75.517426,-165.73306,-75.974266,10.781239,-0.88859075,95.325272
150007500,-32.982342,46.745777,-0.26698446,-1.8725007,-85.293289,27.677704,-77.707657,-118.07918,-0.88932669,95.303925
150008437.5,-32.937122,46.807354,-0.26807067,-1.8841785,-92.516258,62.394047,-76.684784,-157.65308,-0.88971186,95.301888
150009375,-32.982155,46.740799,-0.26701495,-1.8723881,-75.810127,65.276917,-74.193336,94.004868,-0.89001209,95.293114
150010312.5,-32.967747,46.717739,-0.26757249,-1.8747874,-82.441772,-123.96606,-82.80928,-3.7215481,-0.88871032,95.296844
150011250,-32.973465,46.638325,-0.26778999,-1.8711077,-76.273926,-40.627811,-74.802422,172.11223,-0.89043397,95.297897
150012187.5,-32.937405,46.762238,-0.26828679,-1.8827246,-88.87352,63.685349,-80.433502,158.69785,-0.89013743,95.278473
150013125,-32.997864,46.627815,-0.26709104,-1.8655349,-85.435356,-63.053898,-85.727051,144.51352,-0.89052302,95.273682
150014062.5,-32.977516,46.645245,-0.26763085,-1.8704478,-82.623352,-92.992165,-75.990517,-153.56635,-0.89070565,95.267418
150015000,-32.940845,46.651028,-0.26873395,-1.8785425,-78.521683,-10.043549,-90.286629,151.13808,-0.8900435,95.263733
150015937.5,-32.933804,46.781097,-0.26830405,-1.884088,-87.131279,129.25281,-80.733887,18.178383,-0.89121652,95.257439
150016875,-32.990398,46.794266,-0.26649696,-1.8722522,-84.283356,-25.080666,-79.176559,-164.91112,-0.88989699,95.249367
150017812.5,-33.003502,46.750015,-0.26631415,-1.868073,-82.271248,132.04381,-98.796112,-116.21091,-0.89158028,95.242989
150018750,-33.006523,46.715851,-0.26639035,-1.8663759,-89.111839,79.548622,-85.852783,-113.71814,-0.8898623,95.24855
150019687.5,-32.975681,46.789829,-0.26697063,-1.8752912,-75.715775,171.44705,-84.702698,156.54604,-0.8903988,95.229225
150020625,-32.96389,46.689758,-0.2678301,-1.874758,-82.362518,-7.5397253,-80.387337,149.31895,-0.89238989,95.227921
150021562.5,-32.941269,46.824394,-0.26785779,-1.883804,-93.624107,46.084618,-97.079155,-81.456528,-0.89063865,95.224144
150022500,-32.978138,47.032883,-0.2656869,-1.8822101,-79.273193,-149.27473,-79.173012,-112.2865,-0.89268851,95.223175
150023437.5,-32.999916,46.870224,-0.26582903,-1.8725269,-81.461464,-127.17818,-76.961876,145.43213,-0.88958901,95.207596
150024375,-32.945915,46.75584,-0.26805604,-1.8806828,-83.801041,126.66341,-81.472679,-141.65399,-0.88972437,95.200333
150025312.5,-32.969292,46.750275,-0.26736349,-1.8754557,-76.978134,-39.398735,-85.436546,61.881878,-0.89029092,95.187096
150026250,-32.987534,46.992054,-0.26560283,-1.8789272,-83.573616,109.7031,-89.380623,-108.73827,-0.89060193,95.191864
150027187.5,-32.966892,46.704742,-0.2676633,-1.8745717,-79.753769,-143.71295,-85.424507,2.6761086,-0.8909111,95.184052
150028125,-32.953232,46.756718,-0.26782605,-1.879126,-81.021553,-85.578018,-77.7276,109.26324,-0.890697,95.176285
150029062.5,-32.942577,46.822731,-0.26782578,-1.8834693,-82.839088,72.365379,-82.506569,-120.79246,-0.88991767,95.175995
150030000,-32.976078,46.783112,-0.26699185,-1.8749994,-82.382889,-26.863354,-76.696152,119.36649,-0.88956833,95.17157
150030937.5,-32.981537,46.807777,-0.26670176,-1.8745781,-86.793365,-169.13104,-87.55777,-57.086346,-0.89193386,95.165565
150031875,-32.987877,46.85302,-0.26628289,-1.8745971,-89.638573,65.101433,-84.589539,-153.03394,-0.89121896,95.157997
150032812.5,-32.974834,46.773773,-0.26707634,-1.8749807,-82.669617,-73.264603,-88.120407,79.926888,-0.88992971,95.148628
150033750,-32.969658,46.716064,-0.26752189,-1.874323,-74.437637,-147.4968,-87.57399,126.55786,-0.89168924,95.149345
150034687.5,-32.967636,46.739681,-0.26746699,-1.875487,-85.880524,103.15323,-82.627686,-157.08484,-0.88967317,95.141006
150035625,-32.987724,46.743973,-0.26682812,-1.8712848,-83.633156,-105.2759,-80.087959,-53.747509,-0.89142704,95.131485
150036562.5,-32.952038,46.747765,-0.26790735,-1.8791082,-94.298347,-99.913223,-81.780273,-106.928,-0.89112991,95.124496
150037500,-32.977497,46.764832,-0.26703888,-1.8741312,-80.039719,-15.650927,-74.268761,-125.15949,-0.89027673,95.125954
150038437.5,-32.966358,46.674171,-0.26783141,-1.8737451,-77.0205,-47.752151,-86.951286,-148.73874,-0.89022976,95.122757
150039375,-32.978046,46.829941,-0.2666989,-1.8760124,-90.035561,-116.90361,-89.527061,-95.869476,-0.89039701,95.11116
150040312.5,-32.985249,46.758472,-0.26683235,-1.8722641,-76.56501,-33.782284,-84.829491,145.6757,-0.89034289,95.100189
150041250,-32.980133,46.915901,-0.26620787,-1.8781974,-86.594849,27.449232,-85.514717,-167.48825,-0.89090151,95.098396
150042187.5,-32.96172,46.648273,-0.26810285,-1.8739469,-83.838264,75.182877,-78.85907,83.503967,-0.88877904,95.093918
150043125,-32.970665,46.709629,-0.2675229,-1.873908,-83.209084,37.468563,-90.904648,-161.03198,-0.89088523,95.088348
150044062.5,-32.941803,46.620609,-0.2688556,-1.8773949,-78.426048,-136.67265,-82.122322,-167.45842,-0.89096141,95.076721
150045000,-32.977623,46.726875,-0.26722321,-1.8729372,-77.364357,-68.347664,-79.040703,-160.88249,-0.89018434,95.069977
150045937.5,-32.972759,46.791615,-0.26705161,-1.8759776,-78.655632,0.68347794,-82.006302,-114.61186,-0.89089,95.064949
150046875,-32.964962,46.725311,-0.26762068,-1.8756223,-85.835136,70.373085,-80.233208,-90.421066,-0.89023972,95.064743
150047812.5,-32.959976,46.716145,-0.26781976,-1.8764164,-77.762291,-100.06487,-81.780403,3.5751047,-0.89103532,95.054893
150048750,-32.978382,46.829071,-0.266693,-1.8759139,-84.511848,138.9305,-88.752556,72.199883,-0.89035237,95.04995
150049687.5,-32.972,46.742218,-0.2673201,-1.8746227,-88.231781,-0.956963,-76.600914,-62.194462,-0.89008814,95.037247
150050625,-32.96563,46.640087,-0.26802281,-1.8728509,-80.325539,3.3843343,-89.902473,-9.0846157,-0.89132267,95.034065
150051562.5,-32.99144,46.804611,-0.26641372,-1.8723449,-82.600517,-166.79857,-80.969009,45.782047,-0.88954693,95.029572
150052500,-32.977013,46.921932,-0.26627356,-1.8790576,-78.948219,28.251839,-82.855591,-127.59219,-0.89164752,95.030571
150053437.5,-32.947037,46.568451,-0.26895258,-1.8746498,-79.978302,117.90264,-75.950043,-63.744114,-0.89050347,95.025032
150054375,-32.980244,46.877598,-0.26639488,-1.8769999,-91.23468,32.486942,-76.765541,-154.12199,-0.88959759,95.009071
150055312.5,-33.006691,46.848232,-0.26573062,-1.8703935,-76.919312,50.896488,-77.26474,93.946297,-0.89139545,95.008499
150056250,-32.956814,46.538456,-0.2687988,-1.8716129,-84.207939,-6.8482642,-84.95237,91.420624,-0.89016014,95.004822
150057187.5,-32.954132,46.714279,-0.26800928,-1.8776228,-81.556923,134.42513,-84.288788,74.359978,-0.89111692,95.000633
150058125,-32.96212,46.451775,-0.2690635,-1.8677874,-75.143021,179.04892,-91.548027,-99.052834,-0.89172274,94.986847
150059062.5,-32.989864,46.579769,-0.26757437,-1.8657752,-84.947876,53.752167,-79.353142,-94.738663,-0.89121765,94.982018
150060000,-32.986439,46.799397,-0.26659289,-1.8732629,-83.887321,-140.3423,-85.550797,68.792046,-0.89120626,94.977562
150060937.5,-32.956013,46.824863,-0.2674014,-1.880623,-79.156792,140.62567,-105.42709,-56.220726,-0.8914091,94.968208
150061875,-32.946354,46.607986,-0.26877749,-1.8760203,-82.32206,-80.649101,-79.566345,14.161449,-0.89136583,94.966339
150062812.5,-32.990711,46.503086,-0.26792666,-1.8632306,-85.180382,134.92627,-84.489845,141.39502,-0.89046872,94.960831
150063750,-32.983913,46.694435,-0.26719055,-1.8705839,-83.287354,145.71823,-79.824295,107.80771,-0.89218825,94.952324
150064687.5,-33.001919,46.774654,-0.26624089,-1.8691695,-85.42495,-177.62102,-76.389671,138.36928,-0.89021593,94.950104
150065625,-32.953758,46.732399,-0.26793078,-1.8782628,-100.35195,162.18338,-80.900948,-98.761452,-0.89119548,94.936913
150066562.5,-33.010597,46.880245,-0.26545277,-1.8705306,-79.640556,-123.47675,-75.575539,94.744728,-0.89340961,94.942368
150067500,-32.989124,46.67556,-0.26712364,-1.8688811,-78.068306,155.12093,-82.496117,-164.26045,-0.8918395,94.927742
150068437.5,-32.956108,46.600777,-0.26851174,-1.8736919,-91.511787,102.3551,-78.83049,-4.3027577,-0.88984251,94.925644
150069375,-32.974987,46.789883,-0.26699176,-1.8754433,-90.057335,-137.24112,-102.18432,122.74107,-0.89147615,94.923904
150070312.5,-32.969021,46.552311,-0.26835293,-1.8694115,-79.477715,-134.74933,-79.396797,-91.437057,-0.89225882,94.907074
150071250,-32.974136,46.742733,-0.26725179,-1.874177,-81.676506,-172.80783,-96.712524,-139.69453,-0.89196908,94.906723
150072187.5,-33.005913,46.901634,-0.26548994,-1.8721933,-87.5242,30.882454,-89.282959,42.146645,-0.89189875,94.894814
150073125,-32.953449,47.02079,-0.26650324,-1.8871983,-76.396156,-126.49876,-76.231995,48.572056,-0.89325392,94.889961
150074062.5,-32.970287,46.801613,-0.26707789,-1.8768187,-80.367111,-37.012985,-78.861938,-70.471535,-0.89201748,94.886497
150075000,-33.00684,46.713764,-0.26639101,-1.8662442,-106.21291,-52.365704,-81.508499,-156.33662,-0.89181918,94.879044
150075937.5,-32.98476,46.822041,-0.26653209,-1.8743203,-83.687187,143.1523,-81.041183,128.91093,-0.89212167,94.873871
150076875,-32.977375,46.587162,-0.2679227,-1.8686886,-92.129059,55.022411,-79.297226,159.12596,-0.89085931,94.874474
150077812.5,-32.99028,46.695869,-0.26698771,-1.869257,-84.593971,38.052765,-86.283546,75.283211,-0.89140141,94.8666
150078750,-32.979706,46.661327,-0.26748383,-1.8704715,-80.480415,-117.05907,-82.681793,30.01565,-0.89064485,94.85656
150079687.5,-32.984203,46.749588,-0.26690844,-1.8722163,-79.073944,171.87282,-78.821152,114.31718,-0.89153934,94.854523
150080625,-32.989964,46.753857,-0.2667104,-1.8711058,-79.076195,-2.7979763,-85.650459,9.7950792,-0.8919996,94.848778
150081562.5,-32.985661,47.078484,-0.26522985,-1.8819724,-81.787384,-171.28125,-85.531097,-60.982285,-0.89206171,94.845375
150082500,-32.994808,46.777447,-0.26644492,-1.8707852,-80.516312,-42.10611,-74.906219,71.061661,-0.89134842,94.832497
150083437.5,-32.960251,46.664799,-0.26806617,-1.8747739,-93.841583,93.134537,-79.59375,-133.8141,-0.8925615,94.833664
150084375,-32.982063,46.69178,-0.26726055,-1.8709006,-77.183655,-173.24162,-88.875542,48.376934,-0.89031976,94.825119
150085312.5,-32.95446,46.762894,-0.26775751,-1.8790509,-76.965836,-103.95489,-81.279892,-77.416039,-0.8919965,94.824417
150086250,-32.974716,46.786674,-0.26701602,-1.875403,-79.048759,-16.014679,-79.882317,-103.41051,-0.89227718,94.815613
150087187.5,-32.964531,46.675728,-0.26787996,-1.8741872,-76.687607,112.5313,-80.127914,46.582573,-0.8929103,94.79847
150088125,-32.995552,46.773209,-0.26644316,-1.8704956,-80.05127,167.61067,-81.080269,47.355293,-0.89249372,94.798126
150089062.5,-32.993675,46.731728,-0.26670599,-1.8696269,-72.587029,-16.72965,-92.297173,176.27126,-0.89119005,94.793304
150090000,-32.972546,46.797684,-0.26702803,-1.8762101,-82.519402,-43.41711,-83.699234,66.530479,-0.89270443,94.796143
150090937.5,-33.004307,46.653549,-0.26676601,-1.8649406,-79.13813,136.77689,-79.879807,-115.38537,-0.89131498,94.779976
150091875,-32.970135,46.605358,-0.26805592,-1.8708088,-85.265083,-2.4603593,-77.641098,-133.84692,-0.89348704,94.780807
150092812.5,-32.956272,46.740032,-0.26781532,-1.8779541,-80.205917,-92.227791,-87.185524,-62.5047,-0.89154261,94.770912
150093750,-32.973038,46.555187,-0.26821464,-1.8686357,-83.764534,126.90761,-80.573181,146.78818,-0.89168364,94.756279
150094687.5,-33.002762,46.753811,-0.26631811,-1.8683487,-80.099037,-154.61816,-77.733902,144.81754,-0.89230782,94.761787
150095625,-32.959644,46.705601,-0.26788244,-1.876164,-78.395752,113.12017,-86.09317,-146.95711,-0.89253098,94.760437
150096562.5,-32.988197,46.65799,-0.26723912,-1.8685406,-81.391365,-34.089081,-76.249878,76.886429,-0.89269686,94.750122
150097500,-32.969364,46.535873,-0.26842365,-1.8688301,-84.544586,120.5741,-83.589523,-122.48817,-0.89249396,94.751419
150098437.5,-32.936249,46.734043,-0.26846299,-1.8821043,-79.46154,120.49516,-94.373734,-19.427727,-0.89214134,94.734596
150099375,-32.94981,46.704994,-0.26818877,-1.8782711,-93.82077,-116.93604,-80.810684,56.786324,-0.89093667,94.723526
150100312.5,-33.004513,46.662582,-0.26671517,-1.8651744,-80.817329,-141.45247,-82.553391,-104.17262,-0.89202178,94.719658
150101250,-32.961823,46.778275,-0.2674543,-1.877932,-81.374123,-22.734701,-87.664398,54.147011,-0.89230722,94.718193
150102187.5,-32.993088,46.486877,-0.26793325,-1.8622204,-81.711182,44.0144,-85.063866,17.192671,-0.89222878,94.711617
150103125,-32.956295,46.568054,-0.26866817,-1.8726398,-84.275642,-167.02785,-78.346542,169.20375,-0.89277595,94.718315
150104062.5,-32.966526,46.800194,-0.26720065,-1.877589,-73.034058,123.14663,-77.783775,18.309755,-0.89100724,94.708626
150105000,-32.969196,46.892521,-0.26665953,-1.8798474,-84.962776,-138.86719,-72.379478,-10.426286,-0.89191663,94.691963
150105937.5,-32.963905,46.726631,-0.26764661,-1.8758907,-80.958733,-166.73003,-77.378387,-24.968632,-0.89122951,94.685974
150106875,-32.963741,46.888802,-0.26684546,-1.8809143,-89.63356,-81.630501,-90.748245,23.114532,-0.89244467,94.685562
150107812.5,-32.954777,46.56884,-0.2687113,-1.872992,-80.49408,106.61878,-83.184685,20.019554,-0.89244056,94.676064
150108750,-32.961193,46.874283,-0.26699609,-1.8810207,-85.336578,80.360252,-80.725586,134.22057,-0.89229465,94.669159
150109687.5,-32.965679,46.597153,-0.26823404,-1.8715154,-79.117325,-87.8909,-79.107559,-45.105888,-0.89233518,94.670906
150110625,-32.960804,46.699799,-0.26787549,-1.8757346,-88.692703,15.574121,-85.026749,-55.541035,-0.8920095,94.648026
150111562.5,-32.976513,46.650146,-0.26763758,-1.870815,-88.664612,-103.77116,-79.324059,126.21986,-0.89253962,94.659264
150112500,-32.977737,46.74781,-0.26711598,-1.8735567,-91.058372,107.05873,-76.131454,-137.23697,-0.89293081,94.647018
150113437.5,-32.967922,46.717701,-0.26756734,-1.8747488,-78.253029,2.84886,-85.635994,-161.66623,-0.89276147,94.638329
150114375,-32.980553,46.536774,-0.26807371,-1.866451,-76.209885,-92.619469,-85.999634,-179.10066,-0.89203972,94.625298
150115312.5,-32.966747,46.84351,-0.26697847,-1.8788724,-78.590004,-115.25587,-79.050957,11.784116,-0.89251107,94.632851
150116250,-32.973152,46.635052,-0.2678158,-1.8710736,-86.350563,-2.6353621,-84.9179,22.573738,-0.89333814,94.621414
150117187.5,-32.955276,46.841114,-0.26734307,-1.881282,-84.737648,58.942818,-82.75071,-87.561684,-0.89465666,94.611763
150118125,-32.980675,46.901245,-0.26626408,-1.8776309,-80.290054,-74.670013,-81.161697,177.14565,-0.89313215,94.605835
150119062.5,-32.974174,46.912357,-0.26640815,-1.8793784,-91.924454,-161.63721,-85.760681,-5.4759789,-0.89338887,94.611107
150120000,-32.967033,46.843506,-0.26696971,-1.8788103,-77.752739,54.811172,-76.489395,66.871338,-0.89312679,94.592438
150120937.5,-32.97086,46.900276,-0.26656988,-1.8797251,-75.719376,-160.37289,-94.609863,51.171047,-0.89249712,94.584961
150121875,-33.000965,46.587196,-0.26719612,-1.8636199,-82.42485,42.907837,-76.903717,-99.68145,-0.89318776,94.588135
150122812.5,-32.979244,46.597351,-0.26781467,-1.8686006,-91.193718,-70.376701,-85.878471,-136.35239,-0.89252245,94.584297
150123750,-32.957527,46.656464,-0.26819167,-1.8751053,-75.762955,-141.58231,-81.668793,59.239754,-0.89287156,94.576828
150124687.5,-32.941879,46.840828,-0.26775709,-1.8841784,-86.088737,31.386717,-80.911301,-62.406673,-0.89232945,94.573219
150125625,-33.004234,46.726902,-0.266406,-1.8672073,-94.964058,-19.332071,-84.772484,75.062279,-0.89253229,94.564934
150126562.5,-32.981686,46.718098,-0.26714182,-1.8717916,-83.50148,-174.64716,-74.529327,-54.051785,-0.89194721,94.559578
150127500,-32.932667,46.726791,-0.26860982,-1.8826569,-86.763275,-118.36139,-75.725739,-69.914314,-0.8924253,94.548103
150128437.5,-32.948032,46.584274,-0.26884329,-1.8749248,-80.018806,-49.604733,-79.353485,-75.679115,-0.89190048,94.542465
150129375,-32.973812,46.789864,-0.26702791,-1.8756961,-78.849197,139.21695,-81.720978,-171.49512,-0.89250374,94.543076
150130312.5,-32.935555,46.65303,-0.2688877,-1.8797494,-88.523918,-21.570446,-77.607719,38.079624,-0.89378667,94.535912
150131250,-32.946518,46.828785,-0.26767421,-1.8828012,-88.325203,-81.327255,-80.42318,-17.934893,-0.89354163,94.521324
150132187.5,-32.946404,46.955276,-0.26704675,-1.8867183,-81.609612,15.312191,-80.588074,35.389595,-0.89345682,94.51606
150133125,-32.927734,46.817215,-0.26831114,-1.8865205,-86.807854,142.2872,-81.79924,82.492096,-0.89230216,94.518944
150134062.5,-32.967892,46.516926,-0.26856279,-1.8685614,-76.373436,-57.835018,-83.051193,19.057926,-0.89311653,94.511742
150135000,-32.964825,46.636658,-0.26806468,-1.872919,-86.936638,-117.27353,-84.501541,68.48999,-0.89432728,94.511475
150135937.5,-32.988113,46.774658,-0.26666415,-1.8721431,-82.798225,172.45218,-78.501778,106.40749,-0.89328283,94.493759
150136875,-32.962513,46.781792,-0.26741552,-1.8778899,-80.065056,-121.54404,-79.152946,-13.882346,-0.89248931,94.496498
150137812.5,-32.968788,46.833263,-0.26696676,-1.8781159,-73.805779,96.978157,-75.5242,-54.827534,-0.89345908,94.488914
150138750,-32.955849,46.568138,-0.26868156,-1.8727388,-81.37001,-76.746002,-79.845741,-154.4133,-0.89377683,94.484505
150139687.5,-32.948814,46.699959,-0.26824456,-1.8783308,-86.22628,-138.08846,-79.82444,170.69658,-0.89424419,94.479477
150140625,-32.938656,46.859665,-0.26776245,-1.8854586,-86.942787,131.36595,-77.285706,130.6136,-0.89445877,94.475945
150141562.5,-33.001953,46.810501,-0.26606244,-1.8702598,-89.557877,152.98764,-85.397324,159.44057,-0.89400142,94.468788
150142500,-32.980293,46.880356,-0.26637957,-1.877073,-77.31694,-118.54116,-83.86367,36.960049,-0.8933025,94.453278
150143437.5,-32.963078,46.914658,-0.26673716,-1.8818523,-81.772255,43.471275,-80.84639,-141.63553,-0.89357156,94.4515
150144375,-32.984318,46.781754,-0.26674554,-1.8731798,-81.576576,-71.431038,-75.974525,-135.54056,-0.89460039,94.447426
150145312.5,-32.967613,46.755505,-0.26738921,-1.8759793,-79.567322,-105.21684,-74.521416,-70.642273,-0.8940779,94.449707
150146250,-32.970352,46.883354,-0.26666966,-1.8793157,-79.073433,100.535,-81.964417,-47.485359,-0.89413261,94.432938
150147187.5,-32.955746,46.763573,-0.26771444,-1.8787931,-81.056786,-38.540657,-81.141136,115.66586,-0.89428371,94.430656
150148125,-32.959934,46.782646,-0.2674906,-1.8784742,-79.924873,81.527206,-89.856712,145.83458,-0.89355487,94.426117
150149062.5,-32.974632,46.628239,-0.267804,-1.8705455,-85.025833,13.514032,-74.708031,58.862026,-0.89379811,94.413559
150150000,-32.962414,46.747505,-0.26758891,-1.8768562,-82.458176,-148.37889,-88.228134,-26.481861,-0.89352739,94.409149
150150937.5,-32.965927,46.621647,-0.26810503,-1.8722179,-85.96785,122.73096,-81.430435,-171.13506,-0.89458907,94.412514
150151875,-32.936234,46.759365,-0.26833728,-1.8828896,-81.475777,-109.75335,-92.104408,167.2332,-0.89464605,94.396248
150152812.5,-32.984138,46.745682,-0.26692978,-1.8721105,-78.627022,84.140755,-84.483246,-118.27483,-0.89534384,94.388275
150153750,-32.952465,46.632538,-0.26846665,-1.875459,-80.405846,-159.48706,-81.087257,148.44577,-0.89408171,94.386139
150154687.5,-32.972691,46.715775,-0.2674301,-1.8736603,-78.077728,-91.876717,-77.988266,-170.75832,-0.89391804,94.383186
150155625,-32.992397,46.629997,-0.26724836,-1.8667769,-76.013725,-118.52534,-88.986595,87.373611,-0.89500123,94.381744
